<Qucs Dataset 0.0.18>
<indep acfrequency 200>
  +1.00000000000e+002
  +1.03532184330e+002
  +1.07189131921e+002
  +1.10975249641e+002
  +1.14895100019e+002
  +1.18953406737e+002
  +1.23155060329e+002
  +1.27505124071e+002
  +1.32008840083e+002
  +1.36671635646e+002
  +1.41499129743e+002
  +1.46497139831e+002
  +1.51671688847e+002
  +1.57029012473e+002
  +1.62575566644e+002
  +1.68318035333e+002
  +1.74263338601e+002
  +1.80418640939e+002
  +1.86791359902e+002
  +1.93389175046e+002
  +2.00220037182e+002
  +2.07292177960e+002
  +2.14614119786e+002
  +2.22194686094e+002
  +2.30043011977e+002
  +2.38168555198e+002
  +2.46581107582e+002
  +2.55290806824e+002
  +2.64308148697e+002
  +2.73643999707e+002
  +2.83309610184e+002
  +2.93316627839e+002
  +3.03677111804e+002
  +3.14403547159e+002
  +3.25508859984e+002
  +3.37006432927e+002
  +3.48910121341e+002
  +3.61234269971e+002
  +3.73993730248e+002
  +3.87203878181e+002
  +4.00880632890e+002
  +4.15040475785e+002
  +4.29700470432e+002
  +4.44878283113e+002
  +4.60592204115e+002
  +4.76861169771e+002
  +4.93704785284e+002
  +5.11143348344e+002
  +5.29197873596e+002
  +5.47890117959e+002
  +5.67242606849e+002
  +5.87278661319e+002
  +6.08022426165e+002
  +6.29498899022e+002
  +6.51733960488e+002
  +6.74754405311e+002
  +6.98587974679e+002
  +7.23263389648e+002
  +7.48810385759e+002
  +7.75259748863e+002
  +8.02643352226e+002
  +8.30994194935e+002
  +8.60346441668e+002
  +8.90735463861e+002
  +9.22197882333e+002
  +9.54771611421e+002
  +9.88495904663e+002
  +1.02341140211e+003
  +1.05956017928e+003
  +1.09698579789e+003
  +1.13573335834e+003
  +1.17584955405e+003
  +1.21738272774e+003
  +1.26038292968e+003
  +1.30490197801e+003
  +1.35099352120e+003
  +1.39871310265e+003
  +1.44811822767e+003
  +1.49926843279e+003
  +1.55222535743e+003
  +1.60705281826e+003
  +1.66381688608e+003
  +1.72258596540e+003
  +1.78343087693e+003
  +1.84642494290e+003
  +1.91164407539e+003
  +1.97916686785e+003
  +2.04907468982e+003
  +2.12145178491e+003
  +2.19638537242e+003
  +2.27396575236e+003
  +2.35428641432e+003
  +2.43744415012e+003
  +2.52353917043e+003
  +2.61267522556e+003
  +2.70495973046e+003
  +2.80050389418e+003
  +2.89942285388e+003
  +3.00183581358e+003
  +3.10786618778e+003
  +3.21764175025e+003
  +3.33129478793e+003
  +3.44896226041e+003
  +3.57078596490e+003
  +3.69691270720e+003
  +3.82749447852e+003
  +3.96268863870e+003
  +4.10265810583e+003
  +4.24757155254e+003
  +4.39760360930e+003
  +4.55293507487e+003
  +4.71375313412e+003
  +4.88025158365e+003
  +5.05263106534e+003
  +5.23109930806e+003
  +5.41587137808e+003
  +5.60716993821e+003
  +5.80522551609e+003
  +6.01027678207e+003
  +6.22257083673e+003
  +6.44236350872e+003
  +6.66991966303e+003
  +6.90551352016e+003
  +7.14942898660e+003
  +7.40195999692e+003
  +7.66341086801e+003
  +7.93409666580e+003
  +8.21434358492e+003
  +8.50448934180e+003
  +8.80488358164e+003
  +9.11588829975e+003
  +9.43787827778e+003
  +9.77124153535e+003
  +1.01163797977e+004
  +1.04737089796e+004
  +1.08436596869e+004
  +1.12266777351e+004
  +1.16232246868e+004
  +1.20337784078e+004
  +1.24588336430e+004
  +1.28989026125e+004
  +1.33545156293e+004
  +1.38262217376e+004
  +1.43145893752e+004
  +1.48202070580e+004
  +1.53436840893e+004
  +1.58856512943e+004
  +1.64467617799e+004
  +1.70276917223e+004
  +1.76291411810e+004
  +1.82518349432e+004
  +1.88965233969e+004
  +1.95639834352e+004
  +2.02550193923e+004
  +2.09704640132e+004
  +2.17111794569e+004
  +2.24780583355e+004
  +2.32720247896e+004
  +2.40940356024e+004
  +2.49450813523e+004
  +2.58261876068e+004
  +2.67384161584e+004
  +2.76828663039e+004
  +2.86606761695e+004
  +2.96730240819e+004
  +3.07211299886e+004
  +3.18062569279e+004
  +3.29297125510e+004
  +3.40928506975e+004
  +3.52970730273e+004
  +3.65438307096e+004
  +3.78346261713e+004
  +3.91710149081e+004
  +4.05546073584e+004
  +4.19870708444e+004
  +4.34701315813e+004
  +4.50055767570e+004
  +4.65952566866e+004
  +4.82410870417e+004
  +4.99450511586e+004
  +5.17092024290e+004
  +5.35356667741e+004
  +5.54266452066e+004
  +5.73844164830e+004
  +5.94113398497e+004
  +6.15098578858e+004
  +6.36824994472e+004
  +6.59318827133e+004
  +6.82607183427e+004
  +7.06718127393e+004
  +7.31680714343e+004
  +7.57525025877e+004
  +7.84282206134e+004
  +8.11984499318e+004
  +8.40665288562e+004
  +8.70359136149e+004
  +9.01101825167e+004
  +9.32930402628e+004
  +9.65883224116e+004
  +1.00000000000e+005
</indep>
<dep V1.i acfrequency>
  -1.65083836373e-004-j5.17256622157e-005
  -1.64950036795e-004-j5.35604755658e-005
  -1.64806617530e-004-j5.54609520304e-005
  -1.64652886915e-004-j5.74295049996e-005
  -1.64488103553e-004-j5.94686434887e-005
  -1.64311472733e-004-j6.15809766663e-005
  -1.64122142599e-004-j6.37692186706e-005
  -1.63919200035e-004-j6.60361937381e-005
  -1.63701666268e-004-j6.83848416734e-005
  -1.63468492136e-004-j7.08182236881e-005
  -1.63218553037e-004-j7.33395286441e-005
  -1.62950643494e-004-j7.59520797358e-005
  -1.62663471348e-004-j7.86593416542e-005
  -1.62355651519e-004-j8.14649282753e-005
  -1.62025699332e-004-j8.43726109249e-005
  -1.61672023350e-004-j8.73863272736e-005
  -1.61292917705e-004-j9.05101909238e-005
  -1.60886553872e-004-j9.37485017577e-005
  -1.60450971853e-004-j9.71057571205e-005
  -1.59984070737e-004-j1.00586663925e-004
  -1.59483598572e-004-j1.04196151771e-004
  -1.58947141527e-004-j1.07939387184e-004
  -1.58372112266e-004-j1.11821789090e-004
  -1.57755737501e-004-j1.15849045661e-004
  -1.57095044660e-004-j1.20027132671e-004
  -1.56386847601e-004-j1.24362333531e-004
  -1.55627731317e-004-j1.28861261187e-004
  -1.54814035560e-004-j1.33530882083e-004
  -1.53941837305e-004-j1.38378542424e-004
  -1.53006931989e-004-j1.43411996994e-004
  -1.52004813433e-004-j1.48639440831e-004
  -1.50930652367e-004-j1.54069544073e-004
  -1.49779273470e-004-j1.59711490362e-004
  -1.48545130831e-004-j1.65575019213e-004
  -1.47222281741e-004-j1.71670472833e-004
  -1.45804358715e-004-j1.78008847921e-004
  -1.44284539647e-004-j1.84601853049e-004
  -1.42655516009e-004-j1.91461972343e-004
  -1.40909458987e-004-j1.98602536215e-004
  -1.39037983482e-004-j2.06037800068e-004
  -1.37032109883e-004-j2.13783031982e-004
  -1.34882223556e-004-j2.21854610554e-004
  -1.32578031992e-004-j2.30270134222e-004
  -1.30108519612e-004-j2.39048543605e-004
  -1.27461900232e-004-j2.48210258622e-004
  -1.24625567264e-004-j2.57777332403e-004
  -1.21586041793e-004-j2.67773624327e-004
  -1.18328918742e-004-j2.78224994877e-004
  -1.14838811490e-004-j2.89159525425e-004
  -1.11099295408e-004-j3.00607766551e-004
  -1.07092851031e-004-j3.12603019086e-004
  -1.02800807796e-004-j3.25181652759e-004
  -9.82032896469e-005-j3.38383468117e-004
  -9.32791642065e-005-j3.52252108373e-004
  -8.80059978133e-005-j3.66835528930e-004
  -8.23600194184e-005-j3.82186533700e-004
  -7.63160973077e-005-j3.98363388910e-004
  -6.98477338295e-005-j4.15430526972e-004
  -6.29270849180e-005-j4.33459355249e-004
  -5.55250132844e-005-j4.52529187201e-004
  -4.76111868719e-005-j4.72728316568e-004
  -3.91542377424e-005-j4.94155259019e-004
  -3.01220012356e-005-j5.16920190113e-004
  -2.04818614004e-005-j5.41146613723e-004
  -1.02012368150e-005-j5.66973301210e-004
  +7.51748353666e-007-j5.94556548857e-004
  +1.24073489655e-005-j6.24072809360e-004
  +2.47929611779e-005-j6.55721762583e-004
  +3.79314591137e-005-j6.89729901209e-004
  +5.18389689212e-005-j7.26354717931e-004
  +6.65218980240e-005-j7.65889591773e-004
  +8.19729766893e-005-j8.08669480493e-004
  +9.81659875491e-005-j8.55077531123e-004
  +1.15048749203e-004-j9.05552717200e-004
  +1.32533773087e-004-j9.60598591186e-004
  +1.50485816233e-004-j1.02079319153e-003
  +1.68705291279e-004-j1.08680004458e-003
  +1.86906151325e-004-j1.15938001832e-003
  +2.04686422872e-004-j1.23940346304e-003
  +2.21489001587e-004-j1.32786152714e-003
  +2.36549657340e-004-j1.42587462898e-003
  +2.48828464968e-004-j1.53469459281e-003
  +2.56920231007e-004-j1.65569461510e-003
  +2.58939266659e-004-j1.79033759806e-003
  +2.52374782455e-004-j1.94010795012e-003
  +2.33916641902e-004-j2.10638421589e-003
  +1.99259704400e-004-j2.29021979517e-003
  +1.42912575181e-004-j2.49198789674e-003
  +5.80689325470e-005-j2.71083958397e-003
  -6.33477188924e-005-j2.94393220427e-003
  -2.30282894585e-004-j3.18543298597e-003
  -4.51541407817e-004-j3.42542436199e-003
  -7.33918776243e-004-j3.64906385526e-003
  -1.07942474757e-003-j3.83665152264e-003
  -1.48208339332e-003-j3.96544481837e-003
  -1.92559297793e-003-j4.01375277923e-003
  -2.38365444352e-003-j3.96671818055e-003
  -2.82414348971e-003-j3.82162221599e-003
  -3.21624406258e-003-j3.58986372059e-003
  -3.53752490452e-003-j3.29417362515e-003
  -3.77776718319e-003-j2.96239259342e-003
  -3.93844968188e-003-j2.62091424917e-003
  -4.02923026974e-003-j2.29035229770e-003
  -4.06367221415e-003-j1.98412270906e-003
  -4.05583145408e-003-j1.70915952020e-003
  -4.01823618683e-003-j1.46758057363e-003
  -3.96106123080e-003-j1.25842626751e-003
  -3.89206037998e-003-j1.07905420878e-003
  -3.81686962382e-003-j9.26098663020e-004
  -3.73943014244e-003-j7.96058196112e-004
  -3.66240016896e-003-j6.85616719238e-004
  -3.58750263601e-003-j5.91793215030e-004
  -3.51579709611e-003-j5.11990416876e-004
  -3.44788285260e-003-j4.43988793876e-004
  -3.38404624684e-003-j3.85914180391e-004
  -3.32436528972e-003-j3.36195316446e-004
  -3.26878288075e-003-j2.93520037453e-004
  -3.21715742536e-003-j2.56794401042e-004
  -3.16929743815e-003-j2.25106529257e-004
  -3.12498491939e-003-j1.97695601815e-004
  -3.08399092229e-003-j1.73925768911e-004
  -3.04608572312e-003-j1.53264461338e-004
  -3.01104528356e-003-j1.35264486316e-004
  -2.97865518269e-003-j1.19549309041e-004
  -2.94871283634e-003-j1.05800977174e-004
  -2.92102856967e-003-j9.37502185983e-005
  -2.89542593382e-003-j8.31683167001e-005
  -2.87174153530e-003-j7.38604352008e-005
  -2.84982456212e-003-j6.56601236184e-005
  -2.82953613183e-003-j5.84247842700e-005
  -2.81074854588e-003-j5.20319230317e-005
  -2.79334450634e-003-j4.63760398721e-005
  -2.77721633175e-003-j4.13660426279e-005
  -2.76226519521e-003-j3.69230896831e-005
  -2.74840039870e-003-j3.29787850942e-005
  -2.73553869158e-003-j2.94736641059e-005
  -2.72360363664e-003-j2.63559185920e-005
  -2.71252502481e-003-j2.35803212877e-005
  -2.70223833735e-003-j2.11073152090e-005
  -2.69268425366e-003-j1.89022407316e-005
  -2.68380820201e-003-j1.69346777208e-005
  -2.67555995022e-003-j1.51778840942e-005
  -2.66789323310e-003-j1.36083154392e-005
  -2.66076541383e-003-j1.22052129524e-005
  -2.65413717606e-003-j1.09502491241e-005
  -2.64797224415e-003-j9.82722236182e-006
  -2.64223712885e-003-j8.82179319672e-006
  -2.63690089605e-003-j7.92125591536e-006
  -2.63193495645e-003-j7.11434044481e-006
  -2.62731287402e-003-j6.39104013796e-006
  -2.62301019167e-003-j5.74246178450e-006
  -2.61900427220e-003-j5.16069473781e-006
  -2.61527415334e-003-j4.63869652006e-006
  -2.61180041530e-003-j4.17019266182e-006
  -2.60856505982e-003-j3.74958886385e-006
  -2.60555139949e-003-j3.37189384676e-006
  -2.60274395652e-003-j3.03265148912e-006
  -2.60012836992e-003-j2.72788105262e-006
  -2.59769131050e-003-j2.45402446087e-006
  -2.59542040275e-003-j2.20789974128e-006
  -2.59330415320e-003-j1.98665986034e-006
  -2.59133188453e-003-j1.78775628658e-006
  -2.58949367499e-003-j1.60890670367e-006
  -2.58778030259e-003-j1.44806637200e-006
  -2.58618319376e-003-j1.30340270214e-006
  -2.58469437595e-003-j1.17327265955e-006
  -2.58330643401e-003-j1.05620266808e-006
  -2.58201246981e-003-j9.50870721588e-007
  -2.58080606505e-003-j8.56090448838e-007
  -2.57968124684e-003-j7.70796908345e-007
  -2.57863245589e-003-j6.94033916722e-007
  -2.57765451710e-003-j6.24942737835e-007
  -2.57674261228e-003-j5.62751980598e-007
  -2.57589225502e-003-j5.06768571168e-007
  -2.57509926722e-003-j4.56369681019e-007
  -2.57435975755e-003-j4.10995506102e-007
  -2.57367010127e-003-j3.70142804341e-007
  -2.57302692173e-003-j3.33359109288e-007
  -2.57242707298e-003-j3.00237547070e-007
  -2.57186762383e-003-j2.70412191938e-007
  -2.57134584291e-003-j2.43553902940e-007
  -2.57085918488e-003-j2.19366590621e-007
  -2.57040527755e-003-j1.97583868261e-007
  -2.56998191000e-003-j1.77966047157e-007
  -2.56958702144e-003-j1.60297439855e-007
  -2.56921869091e-003-j1.44383939120e-007
  -2.56887512771e-003-j1.30050843949e-007
  -2.56855466246e-003-j1.17140906942e-007
  -2.56825573884e-003-j1.05512580146e-007
  -2.56797690579e-003-j9.50384388551e-008
  -2.56771681044e-003-j8.56037650729e-008
  -2.56747419132e-003-j7.71052742239e-008
  -2.56724787219e-003-j6.94499704497e-008
  -2.56703675623e-003-j6.25541173433e-008
  -2.56683982066e-003-j5.63423123497e-008
  -2.56665611169e-003-j5.07466542783e-008
  -2.56648473987e-003-j4.57059944692e-008
  -2.56632487567e-003-j4.11652631272e-008
  -2.56617574552e-003-j3.70748632118e-008
  -2.56603662791e-003-j3.33901250549e-008
</dep>
<dep _net0.v acfrequency>
  -2.32333114449e-009-j1.07755888936e-007
  -2.49071970356e-009-j1.11568247686e-007
  -2.67019592826e-009-j1.15515948901e-007
  -2.86263686047e-009-j1.19603848083e-007
  -3.06898379601e-009-j1.23836980470e-007
  -3.29024708404e-009-j1.28220568284e-007
  -3.52751129846e-009-j1.32760028337e-007
  -3.78194081223e-009-j1.37460980021e-007
  -4.05478580826e-009-j1.42329253695e-007
  -4.34738876368e-009-j1.47370899505e-007
  -4.66119144777e-009-j1.52592196672e-007
  -4.99774247755e-009-j1.57999663267e-007
  -5.35870547966e-009-j1.63600066522e-007
  -5.74586791139e-009-j1.69400433707e-007
  -6.16115059951e-009-j1.75408063622e-007
  -6.60661806113e-009-j1.81630538748e-007
  -7.08448967739e-009-j1.88075738105e-007
  -7.59715179851e-009-j1.94751850878e-007
  -8.14717086644e-009-j2.01667390871e-007
  -8.73730765106e-009-j2.08831211852e-007
  -9.37053270609e-009-j2.16252523869e-007
  -1.00500431625e-008-j2.23940910613e-007
  -1.07792809908e-008-j2.31906347915e-007
  -1.15619528776e-008-j2.40159223485e-007
  -1.24020518804e-008-j2.48710357983e-007
  -1.33038810413e-008-j2.57571027559e-007
  -1.42720791645e-008-j2.66752987973e-007
  -1.53116489850e-008-j2.76268500451e-007
  -1.64279879860e-008-j2.86130359427e-007
  -1.76269221523e-008-j2.96351922345e-007
  -1.89147429857e-008-j3.06947141711e-007
  -2.02982481494e-008-j3.17930599599e-007
  -2.17847861553e-008-j3.29317544849e-007
  -2.33823055670e-008-j3.41123933205e-007
  -2.50994092488e-008-j3.53366470660e-007
  -2.69454142715e-008-j3.66062660331e-007
  -2.89304181634e-008-j3.79230853189e-007
  -3.10653722986e-008-j3.92890303000e-007
  -3.33621633228e-008-j4.07061225898e-007
  -3.58337036542e-008-j4.21764865014e-007
  -3.84940322448e-008-j4.37023560641e-007
  -4.13584269703e-008-j4.52860826457e-007
  -4.44435302234e-008-j4.69301432379e-007
  -4.77674895299e-008-j4.86371494636e-007
  -5.13501152943e-008-j5.04098573742e-007
  -5.52130581180e-008-j5.22511781050e-007
  -5.93800085298e-008-j5.41641894643e-007
  -6.38769224363e-008-j5.61521485338e-007
  -6.87322761551e-008-j5.82185053604e-007
  -7.39773555483e-008-j6.03669178228e-007
  -7.96465845556e-008-j6.26012677532e-007
  -8.57778993543e-008-j6.49256783910e-007
  -9.24131754808e-008-j6.73445332387e-007
  -9.95987165763e-008-j6.98624963716e-007
  -1.07385815005e-007-j7.24845342349e-007
  -1.15831396505e-007-j7.52159389189e-007
  -1.24998763320e-007-j7.80623528590e-007
  -1.34958453047e-007-j8.10297948251e-007
  -1.45789233760e-007-j8.41246869625e-007
  -1.57579260034e-007-j8.73538824977e-007
  -1.70427419408e-007-j9.07246935149e-007
  -1.84444904760e-007-j9.42449179227e-007
  -1.99757055330e-007-j9.79228643393e-007
  -2.16505517895e-007-j1.01767373080e-006
  -2.34850790275e-007-j1.05787830687e-006
  -2.54975222291e-007-j1.09994174423e-006
  -2.77086564917e-007-j1.14396881741e-006
  -3.01422177198e-007-j1.19006937807e-006
  -3.28254022995e-007-j1.23835771511e-006
  -3.57894616185e-007-j1.28895146715e-006
  -3.90704103880e-007-j1.34196990430e-006
  -4.27098712207e-007-j1.39753132620e-006
  -4.67560817293e-007-j1.45574922620e-006
  -5.12650942444e-007-j1.51672673730e-006
  -5.63022015587e-007-j1.58054868920e-006
  -6.19436238048e-007-j1.64727034786e-006
  -6.82784897208e-007-j1.71690155299e-006
  -7.54111367091e-007-j1.78938448019e-006
  -8.34637323414e-007-j1.86456258889e-006
  -9.25791753156e-007-j1.94213742598e-006
  -1.02924149775e-006-j2.02160878943e-006
  -1.14692056478e-006-j2.10219229537e-006
  -1.28105285134e-006-j2.18270669377e-006
  -1.43415860038e-006-j2.26142159556e-006
  -1.60902794754e-006-j2.33585527684e-006
  -1.80863416935e-006-j2.40251341236e-006
  -2.03594366285e-006-j2.45656596480e-006
  -2.29355932966e-006-j2.49147647995e-006
  -2.58311256940e-006-j2.49863448549e-006
  -2.90430878542e-006-j2.46710895432e-006
  -3.25356085241e-006-j2.38374690642e-006
  -3.62226589655e-006-j2.23397274665e-006
  -3.99505626107e-006-j2.00372991803e-006
  -4.34879855863e-006-j1.68287905864e-006
  -4.65354969385e-006-j1.26979188284e-006
  -4.87661626372e-006-j7.75789871694e-007
  -4.98970463655e-006-j2.27000445687e-007
  -4.97699018228e-006+j3.38640831731e-007
  -4.84030294524e-006+j8.79281389464e-007
  -4.59850466322e-006+j1.35883190308e-006
  -4.28142495068e-006+j1.75404134586e-006
  -3.92169781012e-006+j2.05642889894e-006
  -3.54812744000e-006+j2.26970074935e-006
  -3.18229965260e-006+j2.40511292756e-006
  -2.83812018809e-006+j2.47704760228e-006
  -2.52304966081e-006+j2.49990975796e-006
  -2.23989313914e-006+j2.48644636339e-006
  -1.98846746579e-006+j2.44712026328e-006
  -1.76688469697e-006+j2.39010418929e-006
  -1.57243072306e-006+j2.32156523652e-006
  -1.40211578797e-006+j2.24603979526e-006
  -1.25299191205e-006+j2.16679731404e-006
  -1.12231806962e-006+j2.08615150996e-006
  -1.00763211765e-006+j2.00570937258e-006
  -9.06768940014e-007+j1.92656263109e-006
  -8.17849704544e-007+j1.84943135668e-006
  -7.39257229877e-007+j1.77476994634e-006
  -6.69606105334e-007+j1.70284451566e-006
  -6.07712292414e-007+j1.63378900758e-006
  -5.52564603975e-007+j1.56764566067e-006
  -5.03299112640e-007+j1.50439407795e-006
  -4.59176794781e-007+j1.44397202878e-006
  -4.19564326062e-007+j1.38629027412e-006
  -3.83917758984e-007+j1.33124307897e-006
  -3.51768742029e-007+j1.27871561649e-006
  -3.22712930650e-007+j1.22858913432e-006
  -2.96400261775e-007+j1.18074451166e-006
  -2.72526798252e-007+j1.13506466152e-006
  -2.50827888322e-007+j1.09143610608e-006
  -2.31072422797e-007+j1.04974996258e-006
  -2.13058006869e-007+j1.00990251153e-006
  -1.96606893548e-007+j9.71795471126e-007
  -1.81562551435e-007+j9.35336068008e-007
  -1.67786761292e-007+j9.00436968900e-007
  -1.55157153983e-007+j8.67016120018e-007
  -1.43565117453e-007+j8.34996527691e-007
  -1.32914012846e-007+j8.04306004130e-007
  -1.23117650140e-007+j7.74876895277e-007
  -1.14098982121e-007+j7.46645802592e-007
  -1.05788982486e-007+j7.19553306915e-007
  -9.81256796037e-008+j6.93543699888e-007
  -9.10533221636e-008+j6.68564726477e-007
  -8.45216568761e-008+j6.44567340721e-007
  -7.84853015791e-008+j6.21505475885e-007
  -7.29031997945e-008+j5.99335829458e-007
  -6.77381449796e-008+j5.78017662972e-007
  -6.29563645668e-008+j5.57512616278e-007
  -5.85271554088e-008+j5.37784535711e-007
  -5.44225635338e-008+j5.18799315428e-007
  -5.06171021780e-008+j5.00524751144e-007
  -4.70875029637e-008+j4.82930405442e-007
  -4.38124958450e-008+j4.65987483842e-007
  -4.07726140745e-008+j4.49668720826e-007
  -3.79500209850e-008+j4.33948275045e-007
  -3.53283558275e-008+j4.18801632971e-007
  -3.28925962966e-008+j4.04205520305e-007
  -3.06289356951e-008+j3.90137820488e-007
  -2.85246729720e-008+j3.76577499728e-007
  -2.65681141010e-008+j3.63504537969e-007
  -2.47484834713e-008+j3.50899865304e-007
  -2.30558441353e-008+j3.38745303361e-007
  -2.14810259059e-008+j3.27023511220e-007
  -2.00155604249e-008+j3.15717935482e-007
  -1.86516224329e-008+j3.04812764122e-007
  -1.73819765676e-008+j2.94292883799e-007
  -1.61999290984e-008+j2.84143840327e-007
  -1.50992840773e-008+j2.74351802031e-007
  -1.40743034463e-008+j2.64903525742e-007
